! created by knguyen at Fri Feb 13 14:22:46 CST 2015
! generated using vna/J Version 3.1.3
# Hz S DB R 50
070000000 0.00000000 0.00000000 -73.45352127 33.67205919 0.00000000 0.00000000 0.00000000 0.00000000 
070300000 0.00000000 0.00000000 -73.39909264 33.66175262 0.00000000 0.00000000 0.00000000 0.00000000 
070600000 0.00000000 0.00000000 -73.39578191 34.16367858 0.00000000 0.00000000 0.00000000 0.00000000 
070900000 0.00000000 0.00000000 -70.89314816 34.66155049 0.00000000 0.00000000 0.00000000 0.00000000 
071200000 0.00000000 0.00000000 -73.38633473 35.16590416 0.00000000 0.00000000 0.00000000 0.00000000 
071500000 0.00000000 0.00000000 -76.90634286 35.67129622 0.00000000 0.00000000 0.00000000 0.00000000 
071800000 0.00000000 0.00000000 -79.91176497 -8.81525161 0.00000000 0.00000000 0.00000000 0.00000000 
072100000 0.00000000 0.00000000 -76.89592632 36.67987074 0.00000000 0.00000000 0.00000000 0.00000000 
072400000 0.00000000 0.00000000 -82.91226514 37.18785826 0.00000000 0.00000000 0.00000000 0.00000000 
072700000 0.00000000 0.00000000 -75.91860565 11.12800976 0.00000000 0.00000000 0.00000000 0.00000000 
073000000 0.00000000 0.00000000 -82.90152795 38.19593683 0.00000000 0.00000000 0.00000000 0.00000000 
073300000 0.00000000 0.00000000 -75.90717258 65.25691158 0.00000000 0.00000000 0.00000000 0.00000000 
073600000 0.00000000 0.00000000 -76.87296435 39.20042128 0.00000000 0.00000000 0.00000000 0.00000000 
073900000 0.00000000 0.00000000 -82.88839003 39.70193652 0.00000000 0.00000000 0.00000000 0.00000000 
074200000 0.00000000 0.00000000 -75.89322733 66.77437020 0.00000000 0.00000000 0.00000000 0.00000000 
074500000 0.00000000 0.00000000 -75.88898221 67.27386758 0.00000000 0.00000000 0.00000000 0.00000000 
074800000 0.00000000 0.00000000 -75.88398812 67.78194975 0.00000000 0.00000000 0.00000000 0.00000000 
075100000 0.00000000 0.00000000 -90.00000000 180.00000000 0.00000000 0.00000000 0.00000000 0.00000000 
075400000 0.00000000 0.00000000 -72.86402404 60.66318413 0.00000000 0.00000000 0.00000000 0.00000000 
075700000 0.00000000 0.00000000 -75.87009830 69.29378034 0.00000000 0.00000000 0.00000000 0.00000000 
076000000 0.00000000 0.00000000 -73.31246986 43.23231690 0.00000000 0.00000000 0.00000000 0.00000000 
076300000 0.00000000 0.00000000 -72.84800701 62.17099733 0.00000000 0.00000000 0.00000000 0.00000000 
076600000 0.00000000 0.00000000 -70.54041380 58.26829649 0.00000000 0.00000000 0.00000000 0.00000000 
076900000 0.00000000 0.00000000 -75.84831246 71.30497624 0.00000000 0.00000000 0.00000000 0.00000000 
077200000 0.00000000 0.00000000 -72.83179304 63.67181565 0.00000000 0.00000000 0.00000000 0.00000000 
077500000 0.00000000 0.00000000 -72.82534812 64.17535978 0.00000000 0.00000000 0.00000000 0.00000000 
077800000 0.00000000 0.00000000 -73.27759912 46.24752811 0.00000000 0.00000000 0.00000000 0.00000000 
078100000 0.00000000 0.00000000 -73.27160805 46.75256804 0.00000000 0.00000000 0.00000000 0.00000000 
078400000 0.00000000 0.00000000 -76.78676419 47.25568246 0.00000000 0.00000000 0.00000000 0.00000000 
078700000 0.00000000 0.00000000 -70.49729489 61.79270264 0.00000000 0.00000000 0.00000000 0.00000000 
079000000 0.00000000 0.00000000 -72.79728434 66.68969237 0.00000000 0.00000000 0.00000000 0.00000000 
079300000 0.00000000 0.00000000 -73.24840712 48.76052447 0.00000000 0.00000000 0.00000000 0.00000000 
079600000 0.00000000 0.00000000 -73.24297359 49.25800400 0.00000000 0.00000000 0.00000000 0.00000000 
079900000 0.00000000 0.00000000 -70.47394327 63.79646434 0.00000000 0.00000000 0.00000000 0.00000000 
080200000 0.00000000 0.00000000 -70.46586226 64.30052964 0.00000000 0.00000000 0.00000000 0.00000000 
080500000 0.00000000 0.00000000 -72.76480499 69.20887941 0.00000000 0.00000000 0.00000000 0.00000000 
080800000 0.00000000 0.00000000 -70.45259234 65.31063943 0.00000000 0.00000000 0.00000000 0.00000000 
081100000 0.00000000 0.00000000 -70.70831865 51.77313103 0.00000000 0.00000000 0.00000000 0.00000000 
081400000 0.00000000 0.00000000 -70.43989634 66.30744557 0.00000000 0.00000000 0.00000000 0.00000000 
081700000 0.00000000 0.00000000 -68.75695498 52.77302233 0.00000000 0.00000000 0.00000000 0.00000000 
082000000 0.00000000 0.00000000 -68.75098136 53.27738335 0.00000000 0.00000000 0.00000000 0.00000000 
082300000 0.00000000 0.00000000 -68.74400490 53.76912452 0.00000000 0.00000000 0.00000000 0.00000000 
082600000 0.00000000 0.00000000 -67.03230498 63.74190903 0.00000000 0.00000000 0.00000000 0.00000000 
082900000 0.00000000 0.00000000 -70.66670831 54.77978628 0.00000000 0.00000000 0.00000000 0.00000000 
083200000 0.00000000 0.00000000 -68.55101056 66.58928795 0.00000000 0.00000000 0.00000000 0.00000000 
083500000 0.00000000 0.00000000 -68.71464624 55.78902313 0.00000000 0.00000000 0.00000000 0.00000000 
083800000 0.00000000 0.00000000 -68.70898586 56.29593941 0.00000000 0.00000000 0.00000000 0.00000000 
084100000 0.00000000 0.00000000 -67.11770950 56.79195730 0.00000000 0.00000000 0.00000000 0.00000000 
084400000 0.00000000 0.00000000 -68.04729428 35.49702863 0.00000000 0.00000000 0.00000000 0.00000000 
084700000 0.00000000 0.00000000 -66.64412869 39.35544324 0.00000000 0.00000000 0.00000000 0.00000000 
085000000 0.00000000 0.00000000 -66.12501377 31.73594767 0.00000000 0.00000000 0.00000000 0.00000000 
085300000 0.00000000 0.00000000 -66.63096046 40.36306143 0.00000000 0.00000000 0.00000000 0.00000000 
085600000 0.00000000 0.00000000 -66.62362354 40.87089257 0.00000000 0.00000000 0.00000000 0.00000000 
085900000 0.00000000 0.00000000 -66.61497933 41.37681853 0.00000000 0.00000000 0.00000000 0.00000000 
086200000 0.00000000 0.00000000 -66.09643408 33.74257705 0.00000000 0.00000000 0.00000000 0.00000000 
086500000 0.00000000 0.00000000 -67.99527011 39.01144138 0.00000000 0.00000000 0.00000000 0.00000000 
086800000 0.00000000 0.00000000 -63.91916406 25.77975537 0.00000000 0.00000000 0.00000000 0.00000000 
087100000 0.00000000 0.00000000 -65.44491473 28.13481695 0.00000000 0.00000000 0.00000000 0.00000000 
087400000 0.00000000 0.00000000 -64.74408350 22.52157061 0.00000000 0.00000000 0.00000000 0.00000000 
087700000 0.00000000 0.00000000 -65.42842965 29.13812642 0.00000000 0.00000000 0.00000000 0.00000000 
088000000 0.00000000 0.00000000 -65.58905818 18.33022086 0.00000000 0.00000000 0.00000000 0.00000000 
088300000 0.00000000 0.00000000 -64.71929234 24.01810195 0.00000000 0.00000000 0.00000000 0.00000000 
088600000 0.00000000 0.00000000 -64.71089776 14.13319055 0.00000000 0.00000000 0.00000000 0.00000000 
088900000 0.00000000 0.00000000 -63.98255657 19.83068676 0.00000000 0.00000000 0.00000000 0.00000000 
089200000 0.00000000 0.00000000 -64.69289565 15.13878401 0.00000000 0.00000000 0.00000000 0.00000000 
089500000 0.00000000 0.00000000 -62.66971415 -0.20459123 0.00000000 0.00000000 0.00000000 0.00000000 
089800000 0.00000000 0.00000000 -64.89530345 -0.47173308 0.00000000 0.00000000 0.00000000 0.00000000 
090100000 0.00000000 0.00000000 -63.49037436 3.39853959 0.00000000 0.00000000 0.00000000 0.00000000 
090400000 0.00000000 0.00000000 -64.18709053 -8.62487684 0.00000000 0.00000000 0.00000000 0.00000000 
090700000 0.00000000 0.00000000 -63.20800066 -9.63473876 0.00000000 0.00000000 0.00000000 0.00000000 
091000000 0.00000000 0.00000000 -64.16739169 -7.63420446 0.00000000 0.00000000 0.00000000 0.00000000 
091300000 0.00000000 0.00000000 -64.42188112 -21.15711593 0.00000000 0.00000000 0.00000000 0.00000000 
091600000 0.00000000 0.00000000 -64.34720893 -13.54347622 0.00000000 0.00000000 0.00000000 0.00000000 
091900000 0.00000000 0.00000000 -63.38220135 -20.15776464 0.00000000 0.00000000 0.00000000 0.00000000 
092200000 0.00000000 0.00000000 -64.39422162 -19.66544350 0.00000000 0.00000000 0.00000000 0.00000000 
092500000 0.00000000 0.00000000 -64.31791414 -26.28449737 0.00000000 0.00000000 0.00000000 0.00000000 
092800000 0.00000000 0.00000000 -63.30143691 -24.99541841 0.00000000 0.00000000 0.00000000 0.00000000 
093100000 0.00000000 0.00000000 -64.79454339 -41.35271350 0.00000000 0.00000000 0.00000000 0.00000000 
093400000 0.00000000 0.00000000 -62.87775189 -36.08826604 0.00000000 0.00000000 0.00000000 0.00000000 
093700000 0.00000000 0.00000000 -64.28034471 -46.89740547 0.00000000 0.00000000 0.00000000 0.00000000 
094000000 0.00000000 0.00000000 -63.76683503 -37.20533347 0.00000000 0.00000000 0.00000000 0.00000000 
094300000 0.00000000 0.00000000 -63.75808235 -36.70104386 0.00000000 0.00000000 0.00000000 0.00000000 
094600000 0.00000000 0.00000000 -64.25253955 -45.39652276 0.00000000 0.00000000 0.00000000 0.00000000 
094900000 0.00000000 0.00000000 -64.24110450 -44.89289806 0.00000000 0.00000000 0.00000000 0.00000000 
095200000 0.00000000 0.00000000 -64.50535544 -54.44555237 0.00000000 0.00000000 0.00000000 0.00000000 
095500000 0.00000000 0.00000000 -65.36012960 -59.13166566 0.00000000 0.00000000 0.00000000 0.00000000 
095800000 0.00000000 0.00000000 -67.28775971 -58.63073289 0.00000000 0.00000000 0.00000000 0.00000000 
096100000 0.00000000 0.00000000 -66.20245292 -64.47634742 0.00000000 0.00000000 0.00000000 0.00000000 
096400000 0.00000000 0.00000000 -66.19044401 -63.97274173 0.00000000 0.00000000 0.00000000 0.00000000 
096700000 0.00000000 0.00000000 -65.14913036 -68.44334032 0.00000000 0.00000000 0.00000000 0.00000000 
097000000 0.00000000 0.00000000 -64.66484230 -78.42782331 0.00000000 0.00000000 0.00000000 0.00000000 
097300000 0.00000000 0.00000000 -66.16020590 -62.46966431 0.00000000 0.00000000 0.00000000 0.00000000 
097600000 0.00000000 0.00000000 -67.65284836 -78.82636997 0.00000000 0.00000000 0.00000000 0.00000000 
097900000 0.00000000 0.00000000 -65.73414106 -73.55977566 0.00000000 0.00000000 0.00000000 0.00000000 
098200000 0.00000000 0.00000000 -66.94157371 -68.65693121 0.00000000 0.00000000 0.00000000 0.00000000 
098500000 0.00000000 0.00000000 -67.62049412 -77.31683083 0.00000000 0.00000000 0.00000000 0.00000000 
098800000 0.00000000 0.00000000 -66.55311394 -89.14576116 0.00000000 0.00000000 0.00000000 0.00000000 
099100000 0.00000000 0.00000000 -44.89845040 -154.20187176 0.00000000 0.00000000 0.00000000 0.00000000 
099400000 0.00000000 0.00000000 -64.57705054 -74.40133622 0.00000000 0.00000000 0.00000000 0.00000000 
099700000 0.00000000 0.00000000 -66.51907018 -87.64890454 0.00000000 0.00000000 0.00000000 0.00000000 
